#  hz  S   RI  R  50 
0.0000000000e+00 3.0200236350e-06 0.0000000000e+00 9.9999697998e-01 0.0000000000e+00 9.9999697998e-01 0.0000000000e+00 3.0200236351e-06 0.0000000000e+00 
1.0000000000e+06 -8.3473523320e-07 -2.4768276140e-04 9.9999320957e-01 -3.6767927341e-03 9.9999320957e-01 -3.6767927341e-03 -9.8663154856e-07 -2.4768220291e-04 
2.0000000000e+06 -3.3388562173e-06 -4.9534796947e-04 9.9997283940e-01 -7.3535344400e-03 9.9997283940e-01 -7.3535344400e-03 -3.9464257319e-06 -4.9534350157e-04 
3.0000000000e+06 -7.5121096075e-06 -7.4297807019e-04 9.9993888973e-01 -1.1030174093e-02 9.9993888973e-01 -1.1030174093e-02 -8.8790806638e-06 -7.4296299134e-04 
4.0000000000e+06 -1.3354072854e-05 -9.9055551531e-04 9.9989136017e-01 -1.4706660623e-02 9.9989136017e-01 -1.4706660623e-02 -1.5784095490e-05 -9.9051977390e-04 
5.0000000000e+06 -2.0864153716e-05 -1.2380627584e-03 9.9983025230e-01 -1.8382943034e-02 9.9983025230e-01 -1.8382943034e-02 -2.4660763411e-05 -1.2379929537e-03 
6.0000000000e+06 -3.0041594444e-05 -1.4854822685e-03 9.9975556704e-01 -2.2058970344e-02 9.9975556704e-01 -2.2058970344e-02 -3.5508184978e-05 -1.4853616517e-03 
7.0000000000e+06 -4.0885463625e-05 -1.7327965091e-03 9.9966730536e-01 -2.5734691380e-02 9.9966730536e-01 -2.5734691380e-02 -4.8325254252e-05 -1.7326049847e-03 
8.0000000000e+06 -5.3394663541e-05 -1.9799879595e-03 9.9956546791e-01 -2.9410055411e-02 9.9956546791e-01 -2.9410055411e-02 -6.3110664060e-05 -1.9797020871e-03 
9.0000000000e+06 -6.7567929170e-05 -2.2270391066e-03 9.9945005767e-01 -3.3085011074e-02 9.9945005767e-01 -3.3085011074e-02 -7.9862910586e-05 -2.2266321032e-03 
1.0000000000e+07 -8.3403822535e-05 -2.4739324504e-03 9.9932107483e-01 -3.6759507624e-02 9.9932107483e-01 -3.6759507624e-02 -9.8580285570e-05 -2.4733741921e-03 
1.1000000000e+07 -1.0090074518e-04 -2.7206505102e-03 9.9917852281e-01 -4.0433494073e-02 9.9917852281e-01 -4.0433494073e-02 -1.1926088407e-04 -2.7199075353e-03 
1.2000000000e+07 -1.2005691734e-04 -2.9671758202e-03 9.9902240271e-01 -4.4106919355e-02 9.9902240271e-01 -4.4106919355e-02 -1.4190260218e-04 -2.9662113314e-03 
1.3000000000e+07 -1.4087041001e-04 -3.2134909299e-03 9.9885271726e-01 -4.7779732639e-02 9.9885271726e-01 -4.7779732639e-02 -1.6650312507e-04 -3.2122647989e-03 
1.4000000000e+07 -1.6333910393e-04 -3.4595783940e-03 9.9866946874e-01 -5.1451882729e-02 9.9866946874e-01 -5.1451882729e-02 -1.9305995145e-04 -3.4580471631e-03 
1.5000000000e+07 -1.8746073059e-04 -3.7054208028e-03 9.9847266050e-01 -5.5123318834e-02 9.9847266050e-01 -5.5123318834e-02 -2.2157037868e-04 -3.7035376896e-03 
1.6000000000e+07 -2.1323284707e-04 -3.9510007673e-03 9.9826229558e-01 -5.8793990154e-02 9.9826229558e-01 -5.8793990154e-02 -2.5203149660e-04 -3.9487156691e-03 
1.7000000000e+07 -2.4065283557e-04 -4.1963009065e-03 9.9803837658e-01 -6.2463845689e-02 9.9803837658e-01 -6.2463845689e-02 -2.8444020144e-04 -4.1935604034e-03 
1.8000000000e+07 -2.6971792000e-04 -4.4413038975e-03 9.9780090714e-01 -6.6132834328e-02 9.9780090714e-01 -6.6132834328e-02 -3.1879319400e-04 -4.4380512577e-03 
1.9000000000e+07 -3.0042516148e-04 -4.6859923964e-03 9.9754989089e-01 -6.9800905485e-02 9.9754989089e-01 -6.9800905485e-02 -3.5508696397e-04 -4.6821675819e-03 
2.0000000000e+07 -3.3277144034e-04 -4.9303491400e-03 9.9728533125e-01 -7.3468008215e-02 9.9728533125e-01 -7.3468008215e-02 -3.9331782042e-04 -4.9258888098e-03 
2.1000000000e+07 -3.6675348626e-04 -5.1743568329e-03 9.9700723338e-01 -7.7134091703e-02 9.9700723338e-01 -7.7134091703e-02 -4.3348185687e-04 -5.1691943505e-03 
2.2000000000e+07 -4.0236784505e-04 -5.4179982705e-03 9.9671560036e-01 -8.0799105158e-02 9.9671560036e-01 -8.0799105158e-02 -4.7557498670e-04 -5.4120637075e-03 
2.3000000000e+07 -4.3961091364e-04 -5.6612562415e-03 9.9641043666e-01 -8.4462997721e-02 9.9641043666e-01 -8.4462997721e-02 -5.1959290638e-04 -5.6544763860e-03 
2.4000000000e+07 -4.7847890489e-04 -5.9041135785e-03 9.9609174779e-01 -8.8125718626e-02 9.9609174779e-01 -8.8125718626e-02 -5.6553113478e-04 -5.8964119383e-03 
2.5000000000e+07 -5.1896789242e-04 -6.1465531596e-03 9.9575953780e-01 -9.1787217163e-02 9.9575953780e-01 -9.1787217163e-02 -6.1338498082e-04 -6.1378499723e-03 
2.6000000000e+07 -5.6107375674e-04 -6.3885578818e-03 9.9541381204e-01 -9.5447442741e-02 9.9541381204e-01 -9.5447442741e-02 -6.6314956976e-04 -6.3787701180e-03 
2.7000000000e+07 -6.0479223842e-04 -6.6301106926e-03 9.9505457557e-01 -9.9106344396e-02 9.9505457557e-01 -9.9106344396e-02 -7.1481980134e-04 -6.6191520680e-03 
2.8000000000e+07 -6.5011888176e-04 -6.8711945656e-03 9.9468183390e-01 -1.0276387174e-01 9.9468183390e-01 -1.0276387174e-01 -7.6839042612e-04 -6.8589755410e-03 
2.9000000000e+07 -6.9704911163e-04 -7.1117925523e-03 9.9429559271e-01 -1.0641997387e-01 9.9429559271e-01 -1.0641997387e-01 -8.2385595211e-04 -7.0982203502e-03 
3.0000000000e+07 -7.4557814556e-04 -7.3518876875e-03 9.9389585782e-01 -1.1007460045e-01 9.9389585782e-01 -1.1007460045e-01 -8.8121073048e-04 -7.3368662921e-03 
3.1000000000e+07 -7.9570106292e-04 -7.5914630968e-03 9.9348263531e-01 -1.1372770064e-01 9.9348263531e-01 -1.1372770064e-01 -9.4044889583e-04 -7.5748932670e-03 
3.2000000000e+07 -8.4741277430e-04 -7.8305019509e-03 9.9305593131e-01 -1.1737922413e-01 9.9305593131e-01 -1.1737922413e-01 -1.0015644082e-03 -7.8122812257e-03 
3.3000000000e+07 -9.0070802311e-04 -8.0689874231e-03 9.9261575254e-01 -1.2102912034e-01 9.9261575254e-01 -1.2102912034e-01 -1.0645510018e-03 -8.0490101343e-03 
3.4000000000e+07 -9.5558140836e-04 -8.3069027895e-03 9.9216210541e-01 -1.2467733884e-01 9.9216210541e-01 -1.2467733884e-01 -1.1294022490e-03 -8.2850600687e-03 
3.5000000000e+07 -1.0120273292e-03 -8.5442313567e-03 9.9169499661e-01 -1.2832382888e-01 9.9169499661e-01 -1.2832382888e-01 -1.1961115352e-03 -8.5204111396e-03 
3.6000000000e+07 -1.0700400740e-03 -8.7809564599e-03 9.9121443383e-01 -1.3196854056e-01 9.9121443383e-01 -1.3196854056e-01 -1.2646720164e-03 -8.7550435066e-03 
3.7000000000e+07 -1.1296137299e-03 -9.0170615080e-03 9.9072042355e-01 -1.3561142310e-01 9.9072042355e-01 -1.3561142310e-01 -1.3350766900e-03 -8.9889374038e-03 
3.8000000000e+07 -1.1907422572e-03 -9.2525299787e-03 9.9021297389e-01 -1.3925242633e-01 9.9021297389e-01 -1.3925242633e-01 -1.4073183346e-03 -9.2220731528e-03 
3.9000000000e+07 -1.2534194149e-03 -9.4873453688e-03 9.8969209277e-01 -1.4289149986e-01 9.8969209277e-01 -1.4289149986e-01 -1.4813895909e-03 -9.4544310912e-03 
4.0000000000e+07 -1.3176388447e-03 -9.7214912768e-03 9.8915778698e-01 -1.4652859369e-01 9.8915778698e-01 -1.4652859369e-01 -1.5572828572e-03 -9.6859916825e-03 
4.1000000000e+07 -1.3833939875e-03 -9.9549512712e-03 9.8861006500e-01 -1.5016365717e-01 9.8861006500e-01 -1.5016365717e-01 -1.6349903637e-03 -9.9167353624e-03 
4.2000000000e+07 -1.4506781771e-03 -1.0187709201e-02 9.8804893575e-01 -1.5379664064e-01 9.8804893575e-01 -1.5379664064e-01 -1.7145041578e-03 -1.0146642865e-02 
4.3000000000e+07 -1.5194845526e-03 -1.0419748611e-02 9.8747440644e-01 -1.5742749345e-01 9.8747440644e-01 -1.5742749345e-01 -1.7958160677e-03 -1.0375694631e-02 
4.4000000000e+07 -1.5898061024e-03 -1.0651053541e-02 9.8688648727e-01 -1.6105616597e-01 9.8688648727e-01 -1.6105616597e-01 -1.8789177147e-03 -1.0603871614e-02 
4.5000000000e+07 -1.6616356167e-03 -1.0881607704e-02 9.8628518607e-01 -1.6468260784e-01 9.8628518607e-01 -1.6468260784e-01 -1.9638008545e-03 -1.0831154387e-02 
4.6000000000e+07 -1.7349658986e-03 -1.1111395045e-02 9.8567051160e-01 -1.6830676922e-01 9.8567051160e-01 -1.6830676922e-01 -2.0504563119e-03 -1.1057523928e-02 
4.7000000000e+07 -1.8097894124e-03 -1.1340399688e-02 9.8504247443e-01 -1.7192860021e-01 9.8504247443e-01 -1.7192860021e-01 -2.1388756186e-03 -1.1282961220e-02 
4.8000000000e+07 -1.8860984304e-03 -1.1568605631e-02 9.8440108271e-01 -1.7554805142e-01 9.8440108271e-01 -1.7554805142e-01 -2.2290495360e-03 -1.1507447227e-02 
4.9000000000e+07 -1.9638852496e-03 -1.1795997107e-02 9.8374634654e-01 -1.7916507130e-01 9.8374634654e-01 -1.7916507130e-01 -2.3209687984e-03 -1.1730963168e-02 
5.0000000000e+07 -2.0431419700e-03 -1.2022558301e-02 9.8307827623e-01 -1.8277961138e-01 9.8307827623e-01 -1.8277961138e-01 -2.4146238817e-03 -1.1953490232e-02 
5.1000000000e+07 -2.1238604161e-03 -1.2248273490e-02 9.8239688118e-01 -1.8639162231e-01 9.8239688118e-01 -1.8639162231e-01 -2.5100054363e-03 -1.2175009621e-02 
5.2000000000e+07 -2.2060324679e-03 -1.2473127100e-02 9.8170217185e-01 -1.9000105319e-01 9.8170217185e-01 -1.9000105319e-01 -2.6071034317e-03 -1.2395502837e-02 
5.3000000000e+07 -2.2896495081e-03 -1.2697103544e-02 9.8099415870e-01 -1.9360785489e-01 9.8099415870e-01 -1.9360785489e-01 -2.7059077220e-03 -1.2614951315e-02 
5.4000000000e+07 -2.3747033357e-03 -1.2920187331e-02 9.8027285269e-01 -1.9721197661e-01 9.8027285269e-01 -1.9721197661e-01 -2.8064086649e-03 -1.2833336550e-02 
5.5000000000e+07 -2.4611849812e-03 -1.3142363036e-02 9.7953826335e-01 -2.0081337261e-01 9.7953826335e-01 -2.0081337261e-01 -2.9085954221e-03 -1.3050640227e-02 
5.6000000000e+07 -2.5490854845e-03 -1.3363615476e-02 9.7879040386e-01 -2.0441198902e-01 9.7879040386e-01 -2.0441198902e-01 -3.0124578204e-03 -1.3266844134e-02 
5.7000000000e+07 -2.6383962093e-03 -1.3583929366e-02 9.7802928348e-01 -2.0800777828e-01 9.7802928348e-01 -2.0800777828e-01 -3.1179848275e-03 -1.3481930210e-02 
5.8000000000e+07 -2.7291078863e-03 -1.3803289447e-02 9.7725491476e-01 -2.1160069174e-01 9.7725491476e-01 -2.1160069174e-01 -3.2251658972e-03 -1.3695880196e-02 
5.9000000000e+07 -2.8212111348e-03 -1.4021680770e-02 9.7646730837e-01 -2.1519067859e-01 9.7646730837e-01 -2.1519067859e-01 -3.3339896522e-03 -1.3908676317e-02 
6.0000000000e+07 -2.9146966670e-03 -1.4239088273e-02 9.7566647740e-01 -2.1877769034e-01 9.7566647740e-01 -2.1877769034e-01 -3.4444452489e-03 -1.4120300579e-02 
6.1000000000e+07 -3.0095547025e-03 -1.4455497162e-02 9.7485243260e-01 -2.2236167799e-01 9.7485243260e-01 -2.2236167799e-01 -3.5565210936e-03 -1.4330735342e-02 
6.2000000000e+07 -3.1057755178e-03 -1.4670892481e-02 9.7402518660e-01 -2.2594259118e-01 9.7402518660e-01 -2.2594259118e-01 -3.6702056104e-03 -1.4539962811e-02 
6.3000000000e+07 -3.2033493233e-03 -1.4885259716e-02 9.7318475182e-01 -2.2952038310e-01 9.7318475182e-01 -2.2952038310e-01 -3.7854871409e-03 -1.4747965650e-02 
6.4000000000e+07 -3.3022663162e-03 -1.5098584010e-02 9.7233114112e-01 -2.3309500169e-01 9.7233114112e-01 -2.3309500169e-01 -3.9023537065e-03 -1.4954726259e-02 
6.5000000000e+07 -3.4025160952e-03 -1.5310850996e-02 9.7146436630e-01 -2.3666640180e-01 9.7146436630e-01 -2.3666640180e-01 -4.0207932310e-03 -1.5160227432e-02 
6.6000000000e+07 -3.5040885080e-03 -1.5522046183e-02 9.7058444150e-01 -2.4023452991e-01 9.7058444150e-01 -2.4023452991e-01 -4.1407933274e-03 -1.5364451979e-02 
6.7000000000e+07 -3.6069728265e-03 -1.5732155175e-02 9.6969137886e-01 -2.4379934096e-01 9.6969137886e-01 -2.4379934096e-01 -4.2623420759e-03 -1.5567382550e-02 
6.8000000000e+07 -3.7111586640e-03 -1.5941163735e-02 9.6878519190e-01 -2.4736078489e-01 9.6878519190e-01 -2.4736078489e-01 -4.3854262623e-03 -1.5769002389e-02 
6.9000000000e+07 -3.8166353600e-03 -1.6149057751e-02 9.6786589461e-01 -2.5091881356e-01 9.6786589461e-01 -2.5091881356e-01 -4.5100334429e-03 -1.5969294601e-02 
7.0000000000e+07 -3.9233919923e-03 -1.6355823221e-02 9.6693350052e-01 -2.5447337693e-01 9.6693350052e-01 -2.5447337693e-01 -4.6361508979e-03 -1.6168242416e-02 
7.1000000000e+07 -4.0314177553e-03 -1.6561445956e-02 9.6598802295e-01 -2.5802442850e-01 9.6598802295e-01 -2.5802442850e-01 -4.7637651386e-03 -1.6365829126e-02 
7.2000000000e+07 -4.1407011911e-03 -1.6765912316e-02 9.6502947655e-01 -2.6157191675e-01 9.6502947655e-01 -2.6157191675e-01 -4.8928631439e-03 -1.6562038292e-02 
7.3000000000e+07 -4.2512311852e-03 -1.6969208479e-02 9.6405787584e-01 -2.6511579552e-01 9.6405787584e-01 -2.6511579552e-01 -5.0234316357e-03 -1.6756853451e-02 
7.4000000000e+07 -4.3629962708e-03 -1.7171320805e-02 9.6307323435e-01 -2.6865601664e-01 9.6307323435e-01 -2.6865601664e-01 -5.1554569586e-03 -1.6950258352e-02 
7.5000000000e+07 -4.4759851103e-03 -1.7372235663e-02 9.6207556688e-01 -2.7219253223e-01 9.6207556688e-01 -2.7219253223e-01 -5.2889252526e-03 -1.7142236853e-02 
7.6000000000e+07 -4.5901858699e-03 -1.7571939720e-02 9.6106488905e-01 -2.7572529111e-01 9.6106488905e-01 -2.7572529111e-01 -5.4238227334e-03 -1.7332772969e-02 
7.7000000000e+07 -4.7055866622e-03 -1.7770419574e-02 9.6004121482e-01 -2.7925424884e-01 9.6004121482e-01 -2.7925424884e-01 -5.5601355392e-03 -1.7521850657e-02 
7.8000000000e+07 -4.8221757166e-03 -1.7967662116e-02 9.5900456021e-01 -2.8277935433e-01 9.5900456021e-01 -2.8277935433e-01 -5.6978492985e-03 -1.7709454365e-02 
7.9000000000e+07 -4.9399409803e-03 -1.8163654000e-02 9.5795494000e-01 -2.8630056162e-01 9.5795494000e-01 -2.8630056162e-01 -5.8369496114e-03 -1.7895568244e-02 
8.0000000000e+07 -5.0588700726e-03 -1.8358382393e-02 9.5689236976e-01 -2.8981782134e-01 9.5689236976e-01 -2.8981782134e-01 -5.9774220565e-03 -1.8080176881e-02 
8.1000000000e+07 -5.1789510764e-03 -1.8551834343e-02 9.5581686620e-01 -2.9333108630e-01 9.5581686620e-01 -2.9333108630e-01 -6.1192520097e-03 -1.8263264949e-02 
8.2000000000e+07 -5.3001713307e-03 -1.8743997005e-02 9.5472844368e-01 -2.9684030862e-01 9.5472844368e-01 -2.9684030862e-01 -6.2624247055e-03 -1.8444817068e-02 
8.3000000000e+07 -5.4225178431e-03 -1.8934857965e-02 9.5362711964e-01 -3.0034544135e-01 9.5362711964e-01 -3.0034544135e-01 -6.4069250470e-03 -1.8624818318e-02 
8.4000000000e+07 -5.5459784683e-03 -1.9124404346e-02 9.5251290914e-01 -3.0384643686e-01 9.5251290914e-01 -3.0384643686e-01 -6.5527380804e-03 -1.8803253506e-02 
8.5000000000e+07 -5.6705404295e-03 -1.9312623808e-02 9.5138582920e-01 -3.0734324629e-01 9.5138582920e-01 -3.0734324629e-01 -6.6998482012e-03 -1.8980108039e-02 
8.6000000000e+07 -5.7961903612e-03 -1.9499504047e-02 9.5024589671e-01 -3.1083582259e-01 9.5024589671e-01 -3.1083582259e-01 -6.8482408427e-03 -1.9155366823e-02 
8.7000000000e+07 -5.9229153666e-03 -1.9685032998e-02 9.4909312809e-01 -3.1432412042e-01 9.4909312809e-01 -3.1432412042e-01 -6.9978995711e-03 -1.9329015809e-02 
8.8000000000e+07 -6.0507023406e-03 -1.9869198412e-02 9.4792754068e-01 -3.1780808923e-01 9.4792754068e-01 -3.1780808923e-01 -7.1488090241e-03 -1.9501040328e-02 
8.9000000000e+07 -6.1795380089e-03 -2.0051988271e-02 9.4674915092e-01 -3.2128768371e-01 9.4674915092e-01 -3.2128768371e-01 -7.3009536587e-03 -1.9671425960e-02 
9.0000000000e+07 -6.3094084932e-03 -2.0233390995e-02 9.4555797657e-01 -3.2476285717e-01 9.4555797657e-01 -3.2476285717e-01 -7.4543169834e-03 -1.9840158896e-02 
9.1000000000e+07 -6.4403009024e-03 -2.0413394675e-02 9.4435403589e-01 -3.2823356126e-01 9.4435403589e-01 -3.2823356126e-01 -7.6088834374e-03 -2.0007224963e-02 
9.2000000000e+07 -6.5722014687e-03 -2.0591987656e-02 9.4313734506e-01 -3.3169975063e-01 9.4313734506e-01 -3.3169975063e-01 -7.7646362106e-03 -2.0172610448e-02 
9.3000000000e+07 -6.7050959576e-03 -2.0769158568e-02 9.4190792280e-01 -3.3516137712e-01 9.4190792280e-01 -3.3516137712e-01 -7.9215594155e-03 -2.0336301430e-02 
9.4000000000e+07 -6.8389708081e-03 -2.0944896160e-02 9.4066578665e-01 -3.3861839401e-01 9.4066578665e-01 -3.3861839401e-01 -8.0796360530e-03 -2.0498284760e-02 
9.5000000000e+07 -6.9738120580e-03 -2.1119189004e-02 9.3941095627e-01 -3.4207075353e-01 9.3941095627e-01 -3.4207075353e-01 -8.2388500959e-03 -2.0658546607e-02 
9.6000000000e+07 -7.1096054812e-03 -2.1292026079e-02 9.3814344842e-01 -3.4551841243e-01 9.3814344842e-01 -3.4551841243e-01 -8.3991841734e-03 -2.0817073998e-02 
9.7000000000e+07 -7.2463370267e-03 -2.1463396479e-02 9.3686328229e-01 -3.4896132092e-01 9.3686328229e-01 -3.4896132092e-01 -8.5606214144e-03 -2.0973853955e-02 
9.8000000000e+07 -7.3839920857e-03 -2.1633289454e-02 9.3557047623e-01 -3.5239943452e-01 9.3557047623e-01 -3.5239943452e-01 -8.7231451018e-03 -2.1128873402e-02 
9.9000000000e+07 -7.5225564317e-03 -2.1801694099e-02 9.3426504880e-01 -3.5583270696e-01 9.3426504880e-01 -3.5583270696e-01 -8.8867377604e-03 -2.1282119557e-02 
1.0000000000e+08 -7.6620152076e-03 -2.1968600088e-02 9.3294701994e-01 -3.5926109065e-01 9.3294701994e-01 -3.5926109065e-01 -9.0513823961e-03 -2.1433579813e-02 
1.0100000000e+08 -7.8023539635e-03 -2.2133996739e-02 9.3161640929e-01 -3.6268453978e-01 9.3161640929e-01 -3.6268453978e-01 -9.2170612524e-03 -2.1583241667e-02 
1.0200000000e+08 -7.9435578550e-03 -2.2297874017e-02 9.3027323514e-01 -3.6610300802e-01 9.3027323514e-01 -3.6610300802e-01 -9.3837569310e-03 -2.1731093000e-02 
1.0300000000e+08 -8.0856122977e-03 -2.2460221526e-02 9.2891751761e-01 -3.6951644978e-01 9.2891751761e-01 -3.6951644978e-01 -9.5514514786e-03 -2.1877121654e-02 
1.0400000000e+08 -8.2285022890e-03 -2.2621029218e-02 9.2754927526e-01 -3.7292482074e-01 9.2754927526e-01 -3.7292482074e-01 -9.7201276524e-03 -2.2021315384e-02 
1.0500000000e+08 -8.3722123391e-03 -2.2780287404e-02 9.2616853028e-01 -3.7632807242e-01 9.2616853028e-01 -3.7632807242e-01 -9.8897665693e-03 -2.2163662849e-02 
1.0600000000e+08 -8.5167274070e-03 -2.2937986217e-02 9.2477530071e-01 -3.7972616032e-01 9.2477530071e-01 -3.7972616032e-01 -1.0060351291e-02 -2.2304151840e-02 
1.0700000000e+08 -8.6620322661e-03 -2.3094116133e-02 9.2336960762e-01 -3.8311903930e-01 9.2336960762e-01 -3.8311903930e-01 -1.0231862751e-02 -2.2442771389e-02 
1.0800000000e+08 -8.8081117149e-03 -2.3248667595e-02 9.2195147127e-01 -3.8650666392e-01 9.2195147127e-01 -3.8650666392e-01 -1.0404283422e-02 -2.2579509813e-02 
1.0900000000e+08 -8.9549504292e-03 -2.3401631213e-02 9.2052091246e-01 -3.8988898708e-01 9.2052091246e-01 -3.8988898708e-01 -1.0577594064e-02 -2.2714356351e-02 
1.1000000000e+08 -9.1025320599e-03 -2.3552998004e-02 9.1907795048e-01 -3.9326596675e-01 9.1907795048e-01 -3.9326596675e-01 -1.0751776775e-02 -2.2847299645e-02 
1.1100000000e+08 -9.2508417617e-03 -2.3702758646e-02 9.1762260882e-01 -3.9663755320e-01 9.1762260882e-01 -3.9663755320e-01 -1.0926813124e-02 -2.2978328827e-02 
1.1200000000e+08 -9.3998636928e-03 -2.3850904271e-02 9.1615490643e-01 -4.0000370429e-01 9.1615490643e-01 -4.0000370429e-01 -1.1102683671e-02 -2.3107433594e-02 
1.1300000000e+08 -9.5495815710e-03 -2.3997426374e-02 9.1467486551e-01 -4.0336437550e-01 9.1467486551e-01 -4.0336437550e-01 -1.1279369729e-02 -2.3234603489e-02 
1.1400000000e+08 -9.6999796123e-03 -2.4142316144e-02 9.1318250686e-01 -4.0671951979e-01 9.1318250686e-01 -4.0671951979e-01 -1.1456852660e-02 -2.3359827919e-02 
1.1500000000e+08 -9.8510423011e-03 -2.4285565044e-02 9.1167785274e-01 -4.1006909271e-01 9.1167785274e-01 -4.1006909271e-01 -1.1635113261e-02 -2.3483096971e-02 
1.1600000000e+08 -1.0002752479e-02 -2.4427164971e-02 9.1016092407e-01 -4.1341305113e-01 9.1016092407e-01 -4.1341305113e-01 -1.1814132325e-02 -2.3604400502e-02 
1.1700000000e+08 -1.0155095224e-02 -2.4567107474e-02 9.0863174222e-01 -4.1675135023e-01 9.0863174222e-01 -4.1675135023e-01 -1.1993890350e-02 -2.3723729111e-02 
1.1800000000e+08 -1.0308053262e-02 -2.4705384644e-02 9.0709033058e-01 -4.2008394421e-01 9.0709033058e-01 -4.2008394421e-01 -1.2174368375e-02 -2.3841072693e-02 
1.1900000000e+08 -1.0461610551e-02 -2.4841988772e-02 9.0553671065e-01 -4.2341078834e-01 9.0553671065e-01 -4.2341078834e-01 -1.2355547009e-02 -2.3956422095e-02 
1.2000000000e+08 -1.0615750633e-02 -2.4976911927e-02 9.0397090530e-01 -4.2673183854e-01 9.0397090530e-01 -4.2673183854e-01 -1.2537405966e-02 -2.4069768228e-02 
1.2100000000e+08 -1.0770456824e-02 -2.5110146610e-02 9.0239293576e-01 -4.3004705191e-01 9.0239293576e-01 -4.3004705191e-01 -1.2719926408e-02 -2.4181101612e-02 
1.2200000000e+08 -1.0925712953e-02 -2.5241685294e-02 9.0080282484e-01 -4.3335638439e-01 9.0080282484e-01 -4.3335638439e-01 -1.2903087871e-02 -2.4290413817e-02 
1.2300000000e+08 -1.1081502231e-02 -2.5371520690e-02 8.9920059763e-01 -4.3665978915e-01 8.9920059763e-01 -4.3665978915e-01 -1.3086870942e-02 -2.4397695850e-02 
