#  Hz  S   RI  R  50 
0.0000000000e+00 -5.2219874167e-01 0.0000000000e+00 3.4825764115e-01 0.0000000000e+00 4.5488332515e-01 0.0000000000e+00 3.4900860701e-01 0.0000000000e+00 3.7004914361e-01 0.0000000000e+00 3.4825764115e-01 0.0000000000e+00 -5.2303189889e-01 0.0000000000e+00 3.4942365950e-01 0.0000000000e+00 4.5466596861e-01 0.0000000000e+00 3.7068470082e-01 0.0000000000e+00 4.5488332515e-01 0.0000000000e+00 3.4942365950e-01 0.0000000000e+00 -5.2577228105e-01 0.0000000000e+00 3.5017713913e-01 0.0000000000e+00 3.7128812186e-01 0.0000000000e+00 3.4900860701e-01 0.0000000000e+00 4.5466596861e-01 0.0000000000e+00 3.5017713913e-01 0.0000000000e+00 -5.2533570927e-01 0.0000000000e+00 3.7148403028e-01 0.0000000000e+00 3.7004914361e-01 0.0000000000e+00 3.7068470082e-01 0.0000000000e+00 3.7128812186e-01 0.0000000000e+00 3.7148403028e-01 0.0000000000e+00 -4.8350604335e-01 0.0000000000e+00 
1.0000000000e+08 -5.2209873934e-01 7.1725862977e-03 3.4815092822e-01 -6.4048492346e-03 4.5498082755e-01 6.2923374345e-03 3.4889892352e-01 -7.0005528366e-03 3.7003699932e-01 -1.3035467221e-03 3.4815092822e-01 -6.4048492346e-03 -5.2294018527e-01 6.6740314383e-03 3.4931853859e-01 -6.7153441717e-03 4.5475973368e-01 6.0738707088e-03 3.7068006950e-01 -8.7164013121e-04 4.5498082755e-01 6.2923374345e-03 3.4931853859e-01 -6.7153441717e-03 -5.2567600184e-01 7.0278062302e-03 3.5007000043e-01 -6.3436251447e-03 3.7127533210e-01 -1.5089663863e-03 3.4889892352e-01 -7.0005528366e-03 4.5475973368e-01 6.0738707088e-03 3.5007000043e-01 -6.3436251447e-03 -5.2523857507e-01 7.1186088313e-03 3.7147869812e-01 -1.0948646568e-03 3.7003699932e-01 -1.3035467221e-03 3.7068006950e-01 -8.7164013121e-04 3.7127533210e-01 -1.5089663863e-03 3.7147869812e-01 -1.0948646568e-03 -4.8350127344e-01 3.4616781991e-03 
2.0000000000e+08 -5.2179878317e-01 1.4337955674e-02 3.4783118230e-01 -1.2799277720e-02 4.5527328907e-01 1.2577643162e-02 3.4857027255e-01 -1.3990444951e-02 3.7000075578e-01 -2.6049032633e-03 3.4783118230e-01 -1.2799277720e-02 -5.2266506189e-01 1.3341562221e-02 3.4900356471e-01 -1.3420425019e-02 4.5504100638e-01 1.2141031354e-02 3.7066635434e-01 -1.7417557971e-03 4.5527328907e-01 1.2577643162e-02 3.4900356471e-01 -1.3420425019e-02 -5.2538720476e-01 1.4048752097e-02 3.4974897978e-01 -1.2676757772e-02 3.7123715212e-01 -3.0157284285e-03 3.4857027255e-01 -1.3990444951e-02 4.5504100638e-01 1.2141031354e-02 3.4974897978e-01 -1.2676757772e-02 -5.2494720016e-01 1.4230281299e-02 3.7146288069e-01 -2.1881910087e-03 3.7000075578e-01 -2.6049032633e-03 3.7066635434e-01 -1.7417557971e-03 3.7123715212e-01 -3.0157284285e-03 3.7146288069e-01 -2.1881910087e-03 -4.8348677460e-01 6.9249767595e-03 
3.0000000000e+08 -5.2129934446e-01 2.1488059621e-02 3.4729942692e-01 -1.9173738119e-02 4.5576025450e-01 1.8848051492e-02 3.4802369886e-01 -2.0959890944e-02 3.6994073432e-01 -3.9027638808e-03 3.4729942692e-01 -1.9173738119e-02 -5.2220694626e-01 1.9995249073e-02 3.4847974905e-01 -2.0105854751e-02 4.5550935230e-01 1.8193927955e-02 3.7064381748e-01 -2.6097108462e-03 4.5576025450e-01 1.8848051492e-02 3.4847974905e-01 -2.0105854751e-02 -5.2490632933e-01 2.1055140705e-02 3.4921510918e-01 -1.8989782916e-02 3.7117390452e-01 -4.5189682786e-03 3.4802369886e-01 -2.0959890944e-02 4.5550935230e-01 1.8193927955e-02 3.4921510918e-01 -1.8989782916e-02 -5.2446203646e-01 2.1327235730e-02 3.7143684135e-01 -3.2793304307e-03 3.6994073432e-01 -3.9027638808e-03 3.7064381748e-01 -2.6097108462e-03 3.7117390452e-01 -4.5189682786e-03 3.7143684135e-01 -3.2793304307e-03 -4.8346226135e-01 1.0390588543e-02 
4.0000000000e+08 -5.2060129049e-01 2.8614906005e-02 3.4655727405e-01 -2.5518768292e-02 4.5644088367e-01 2.5095751398e-02 3.4726084976e-01 -2.7899192895e-02 3.6985738137e-01 -5.1958391537e-03 3.4655727405e-01 -2.5518768292e-02 -5.2156661019e-01 2.6627804898e-02 3.4774868235e-01 -2.6762329794e-02 4.5616397107e-01 2.4225064241e-02 3.7061280845e-01 -3.4748775218e-03 4.5644088367e-01 2.5095751398e-02 3.4774868235e-01 -2.6762329794e-02 -5.2423418932e-01 2.8039328153e-02 3.4847001396e-01 -2.5273172085e-02 3.7108603758e-01 -6.0173846898e-03 3.4726084976e-01 -2.7899192895e-02 4.5616397107e-01 2.4225064241e-02 3.4847001396e-01 -2.5273172085e-02 -5.2378391404e-01 2.8401749736e-02 3.7140093150e-01 -4.3676429294e-03 3.6985738137e-01 -5.1958391537e-03 3.7061280845e-01 -3.4748775218e-03 3.7108603758e-01 -6.0173846898e-03 3.7140093150e-01 -4.3676429294e-03 -4.8342734937e-01 1.3859197060e-02 
5.0000000000e+08 -5.1970587895e-01 3.5710577857e-02 3.4560692036e-01 -3.1825042675e-02 4.5731395639e-01 3.1313004435e-02 3.4628397080e-01 -3.4798792781e-02 3.6975126945e-01 -6.4828750338e-03 3.4560692036e-01 -3.1825042675e-02 -5.2074517686e-01 3.3232010084e-02 3.4681253140e-01 -3.3380681400e-02 4.5700369947e-01 3.0227013721e-02 3.7057376549e-01 -4.3366548276e-03 4.5731395639e-01 3.1313004435e-02 3.4681253140e-01 -3.3380681400e-02 -5.2337196852e-01 3.4993740593e-02 3.4751590873e-01 -3.1517534865e-02 3.7097412623e-01 -7.5097121008e-03 3.4628397080e-01 -3.4798792781e-02 4.5700369947e-01 3.0227013721e-02 3.4751590873e-01 -3.1517534865e-02 -5.2291403771e-01 3.5446173082e-02 3.7135559185e-01 -5.4525156439e-03 3.6975126945e-01 -6.4828750338e-03 3.7057376549e-01 -4.3366548276e-03 3.7097412623e-01 -7.5097121008e-03 3.7135559185e-01 -5.4525156439e-03 -4.8338155300e-01 1.7331457464e-02 
6.0000000000e+08 -5.1861475098e-01 4.2767250168e-02 3.4445113071e-01 -3.8083421054e-02 4.5837787904e-01 3.7492160882e-02 3.4509588890e-01 -4.1649322143e-02 3.6962309186e-01 -7.7626708440e-03 3.4445113071e-01 -3.8083421054e-02 -5.1974411532e-01 3.9800726940e-02 3.4567402274e-01 -3.9951923900e-02 4.5802701722e-01 3.6192434814e-02 3.7052721085e-01 -5.1944839233e-03 4.5837787904e-01 3.7492160882e-02 3.4567402274e-01 -3.9951923900e-02 -5.2232121431e-01 4.1910889728e-02 3.4635558072e-01 -3.7713668062e-02 3.7083886663e-01 -8.9947386935e-03 3.4509588890e-01 -4.1649322143e-02 4.5802701722e-01 3.6192434814e-02 3.4635558072e-01 -3.7713668062e-02 -5.2185398105e-01 4.2452943537e-02 3.7130134753e-01 -6.5333783201e-03 3.6962309186e-01 -7.7626708440e-03 3.7052721085e-01 -5.1944839233e-03 3.7083886663e-01 -8.9947386935e-03 3.7130134753e-01 -6.5333783201e-03 -4.8332428989e-01 2.0807980024e-02 
7.0000000000e+08 -5.1732992584e-01 4.9777207081e-02 3.4309321734e-01 -4.4284994675e-02 4.5963068963e-01 4.3625676265e-02 3.4369999111e-01 -4.8441649092e-02 3.6947365427e-01 -9.0340955938e-03 3.4309321734e-01 -4.4284994675e-02 -5.1856523606e-01 4.6326914697e-02 3.4433642206e-01 -4.6467300323e-02 4.5923205157e-01 4.2114086547e-02 3.7047374345e-01 -6.0478618278e-03 4.5963068963e-01 4.3625676265e-02 3.4433642206e-01 -4.6467300323e-02 -5.2108383309e-01 4.8783388682e-02 3.4499236876e-01 -4.3852602193e-02 3.7068106768e-01 -1.0471322749e-02 3.4369999111e-01 -4.8441649092e-02 4.5923205157e-01 4.2114086547e-02 3.4499236876e-01 -4.3852602193e-02 -5.2060568152e-01 4.9414603294e-02 3.7123880071e-01 -7.6097170615e-03 3.6947365427e-01 -9.0340955938e-03 3.7047374345e-01 -6.0478618278e-03 3.7068106768e-01 -1.0471322749e-02 3.7123880071e-01 -7.6097170615e-03 -4.8325488861e-01 2.4289315304e-02 
8.0000000000e+08 -5.1585379595e-01 5.6732859877e-02 3.4153701415e-01 -5.0421129596e-02 4.6107006237e-01 4.9706128670e-02 3.4210019844e-01 -5.5166922548e-02 3.6930386362e-01 -1.0296102454e-02 3.4153701415e-01 -5.0421129596e-02 -5.1721068701e-01 5.2803645218e-02 3.4280350872e-01 -5.2918325230e-02 4.6061658168e-01 4.7984844958e-02 3.7041402916e-01 -6.8963534786e-03 4.6107006237e-01 4.9706128670e-02 3.4280350872e-01 -5.2918325230e-02 -5.1966208594e-01 5.5603968661e-02 3.4343013733e-01 -4.9925645195e-02 3.7050163986e-01 -1.1938407161e-02 3.4210019844e-01 -5.5166922548e-02 4.6061658168e-01 4.7984844958e-02 3.4343013733e-01 -4.9925645195e-02 -5.1917143575e-01 5.6323816087e-02 3.7116862082e-01 -8.6810864268e-03 3.6930386362e-01 -1.0296102454e-02 3.7041402916e-01 -6.8963534786e-03 3.7050163986e-01 -1.1938407161e-02 3.7116862082e-01 -8.6810864268e-03 -4.8317259881e-01 2.7775941038e-02 
9.0000000000e+08 -5.1418912164e-01 6.3626765729e-02 3.3978684654e-01 -5.6483506391e-02 4.6269331247e-01 5.5726236868e-02 3.4030093505e-01 -6.1816612772e-02 3.6911471472e-01 -1.1547740967e-02 3.3978684654e-01 -5.6483506391e-02 -5.1568294936e-01 5.9224119504e-02 3.4107954575e-01 -5.9296823932e-02 4.6217804312e-01 5.3797720269e-02 3.7034878890e-01 -7.7396016809e-03 4.6269331247e-01 5.5726236868e-02 3.4107954575e-01 -5.9296823932e-02 -5.1805858430e-01 6.2365496442e-02 3.4167324605e-01 -5.5924422454e-02 3.7030158175e-01 -1.3395031680e-02 3.4030093505e-01 -6.1816612772e-02 4.6217804312e-01 5.3797720269e-02 3.4167324605e-01 -5.5924422454e-02 -5.1755389475e-01 6.3173385055e-02 3.7109153252e-01 -9.7471194129e-03 3.6911471472e-01 -1.1547740967e-02 3.7034878890e-01 -7.7396016809e-03 3.7030158175e-01 -1.3395031680e-02 3.7109153252e-01 -9.7471194129e-03 -4.8307660370e-01 3.1268251203e-02 
1.0000000000e+09 -5.1233902534e-01 7.0451647273e-02 3.3784749712e-01 -6.2464155529e-02 4.6449740147e-01 6.1678879286e-02 3.3830709343e-01 -6.8382547519e-02 3.6890727502e-01 -1.2788166603e-02 3.3784749712e-01 -6.2464155529e-02 -5.1398483306e-01 6.5581685079e-02 3.3916924599e-01 -6.5594967380e-02 4.6391353273e-01 5.9545874924e-02 3.7027878512e-01 -8.5773345664e-03 4.6449740147e-01 6.1678879286e-02 3.3916924599e-01 -6.5594967380e-02 -5.1627628511e-01 6.9060992777e-02 3.3972651508e-01 -6.1840912452e-02 3.7008196478e-01 -1.4840342493e-02 3.3830709343e-01 -6.8382547519e-02 4.6391353273e-01 5.9545874924e-02 3.3972651508e-01 -6.1840912452e-02 -5.1575605859e-01 6.9956271444e-02 3.7100830213e-01 -1.0807534935e-02 3.6890727502e-01 -1.2788166603e-02 3.7027878512e-01 -8.5773345664e-03 3.7008196478e-01 -1.4840342493e-02 3.7100830213e-01 -1.0807534935e-02 -4.8296603418e-01 3.4766547639e-02 
1.1000000000e+09 -5.1030698486e-01 7.7200413018e-02 3.3572416853e-01 -6.8355487936e-02 4.6647894346e-01 6.7557113893e-02 3.3612399645e-01 -7.4856943291e-02 3.6868266825e-01 -1.4016647403e-02 3.3572416853e-01 -6.8355487936e-02 -5.1211947152e-01 7.1869854311e-02 3.3707773514e-01 -7.1805302270e-02 4.6581981444e-01 6.5222642519e-02 3.7020480721e-01 -9.4093703147e-03 4.6647894346e-01 6.7557113893e-02 3.3707773514e-01 -7.1805302270e-02 -5.1431848516e-01 7.5683651754e-02 3.3759518760e-01 -6.7667477558e-02 3.6984391671e-01 -1.6273598879e-02 3.3612399645e-01 -7.4856943291e-02 4.6581981444e-01 6.5222642519e-02 3.3759518760e-01 -6.7667477558e-02 -5.1378127011e-01 7.6665614179e-02 3.7091972295e-01 -1.1862142554e-02 3.6868266825e-01 -1.4016647403e-02 3.7020480721e-01 -9.4093703147e-03 3.6984391671e-01 -1.6273598879e-02 3.7091972295e-01 -1.1862142554e-02 -4.8283998421e-01 3.8271034491e-02 
1.2000000000e+09 -5.0809682525e-01 8.3866178535e-02 3.3342244387e-01 -7.4150320477e-02 4.6863421259e-01 7.3354198912e-02 3.3375735705e-01 -8.1232431445e-02 3.6844205735e-01 -1.5232567585e-02 3.3342244387e-01 -7.4150320477e-02 -5.1009031506e-01 7.8082323618e-02 3.3481051252e-01 -7.7920776091e-02 4.6789332622e-01 7.0821547596e-02 3.7012765649e-01 -1.0235619034e-02 4.6863421259e-01 7.3354198912e-02 3.3481051252e-01 -7.7920776091e-02 -5.1218881405e-01 8.2226861043e-02 3.3528488980e-01 -7.3396889675e-02 3.6958860458e-01 -1.7694176812e-02 3.3375735705e-01 -8.1232431445e-02 4.6789332622e-01 7.0821547596e-02 3.3528488980e-01 -7.3396889675e-02 -5.1163320749e-01 8.3294750248e-02 3.7082660015e-01 -1.2910844343e-02 3.6844205735e-01 -1.5232567585e-02 3.7012765649e-01 -1.0235619034e-02 3.6958860458e-01 -1.7694176812e-02 3.7082660015e-01 -1.2910844343e-02 -4.8269752658e-01 4.1781815557e-02 
1.3000000000e+09 -5.0571270898e-01 9.0442288233e-02 3.3094824574e-01 -7.9841896260e-02 4.7095915229e-01 7.9063614186e-02 3.3121323655e-01 -8.7502079031e-02 3.6818662759e-01 -1.6435428156e-02 3.3094824574e-01 -7.9841896260e-02 -5.0790112293e-01 8.4212993392e-02 3.3237341064e-01 -8.3934757021e-02 4.7013018867e-01 7.6336326103e-02 3.7004813130e-01 -1.1056081842e-02 4.7095915229e-01 7.9063614186e-02 3.3237341064e-01 -8.3934757021e-02 -5.0989122566e-01 8.8684222872e-02 3.3280158964e-01 -7.9022350672e-02 3.6931721765e-01 -1.9101569556e-02 3.3121323655e-01 -8.7502079031e-02 4.7013018867e-01 7.6336326103e-02 3.3280158964e-01 -7.9022350672e-02 -5.0931587513e-01 8.9837235733e-02 3.7072973576e-01 -1.3953633947e-02 3.6818662759e-01 -1.6435428156e-02 3.7004813130e-01 -1.1056081842e-02 3.6931721765e-01 -1.9101569556e-02 3.7072973576e-01 -1.3953633947e-02 -4.8253772871e-01 4.5298894511e-02 
1.4000000000e+09 -5.0315912591e-01 9.6922334626e-02 3.2830779304e-01 -8.5423902672e-02 4.7344938475e-01 8.4679080100e-02 3.2849800053e-01 -9.3659407282e-02 3.6791756846e-01 -1.7624847642e-02 3.2830779304e-01 -8.5423902672e-02 -5.0555595501e-01 9.0255985548e-02 3.2977255225e-01 -8.9841051584e-02 4.7252621381e-01 8.1760943447e-02 3.6996701110e-01 -1.1870850286e-02 4.7344938475e-01 8.4679080100e-02 3.2977255225e-01 -8.9841051584e-02 -5.0742998926e-01 9.5049572598e-02 3.3015155312e-01 -8.4537510480e-02 3.6903094929e-01 -2.0495388362e-02 3.2849800053e-01 -9.3659407282e-02 4.7252621381e-01 8.1760943447e-02 3.3015155312e-01 -8.4537510480e-02 -5.0683359422e-01 9.6286864362e-02 3.7062991273e-01 -1.4990595948e-02 3.6791756846e-01 -1.7624847642e-02 3.6996701110e-01 -1.1870850286e-02 3.6903094929e-01 -2.0495388362e-02 3.7062991273e-01 -1.4990595948e-02 -4.8235966946e-01 4.8822174721e-02 
1.5000000000e+09 -5.0044091960e-01 1.0330012187e-01 3.2550751854e-01 -9.0890540477e-02 4.7610018361e-01 9.0194520701e-02 3.2561823548e-01 -9.9698461121e-02 3.6763601748e-01 -1.8800618801e-02 3.2550751854e-01 -9.0890540477e-02 -5.0305920022e-01 9.6205605061e-02 3.2701426825e-01 -9.5633973538e-02 4.7507687715e-01 8.7089556454e-02 3.6988500262e-01 -1.2680162182e-02 4.7610018361e-01 9.0194520701e-02 3.2701426825e-01 -9.5633973538e-02 -5.0480971762e-01 1.0131694144e-01 3.2734126123e-01 -8.9936536376e-02 3.6873094046e-01 -2.1875419278e-02 3.2561823548e-01 -9.9698461121e-02 4.7507687715e-01 8.7089556454e-02 3.2734126123e-01 -8.9936536376e-02 -5.0419103033e-01 1.0263762992e-01 3.7052784071e-01 -1.6021961687e-02 3.6763601748e-01 -1.8800618801e-02 3.6988500262e-01 -1.2680162182e-02 3.6873094046e-01 -2.1875419278e-02 3.7052784071e-01 -1.6021961687e-02 -4.8216249378e-01 5.2351399441e-02 
1.6000000000e+09 -4.9756328897e-01 1.0956968664e-01 3.2255400991e-01 -9.6236530471e-02 4.7890647172e-01 9.5604084421e-02 3.2258068881e-01 -1.0561381603e-01 3.6734302799e-01 -1.9962703161e-02 3.2255400991e-01 -9.6236530471e-02 -5.0041558014e-01 1.0205635925e-01 3.2410503909e-01 -1.0130835017e-01 4.7777731454e-01 9.2316533132e-02 3.6980270995e-01 -1.3484395368e-02 4.7890647172e-01 9.5604084421e-02 3.2410503909e-01 -1.0130835017e-01 -5.0203537002e-01 1.0748057702e-01 3.2437735028e-01 -9.5214119487e-02 3.6841824737e-01 -2.3241617586e-02 3.2258068881e-01 -1.0561381603e-01 4.7777731454e-01 9.2316533132e-02 3.2437735028e-01 -9.5214119487e-02 -5.0139319590e-01 1.0888374651e-01 3.7042412606e-01 -1.7048102872e-02 3.6734302799e-01 -1.9962703161e-02 3.6980270995e-01 -1.3484395368e-02 3.6841824737e-01 -2.3241617586e-02 3.7042412606e-01 -1.7048102872e-02 -4.8194544361e-01 5.5886156766e-02 
1.7000000000e+09 -4.9453174034e-01 1.1572537827e-01 3.1945399933e-01 -1.0145705547e-01 4.8186286853e-01 1.0090222420e-01 3.1939225783e-01 -1.1140052015e-01 3.6703958634e-01 -2.1111160466e-02 3.1945399933e-01 -1.0145705547e-01 -4.9763010363e-01 1.0780303699e-01 3.2105148503e-01 -1.0685946387e-01 4.8062236844e-01 9.7436532321e-02 3.6972065386e-01 -1.4283996294e-02 4.8186286853e-01 1.0090222420e-01 3.2105148503e-01 -1.0685946387e-01 -4.9911220531e-01 1.1353502352e-01 3.2126660167e-01 -1.0036541646e-01 3.6809385878e-01 -2.4594037011e-02 3.1939225783e-01 -1.1140052015e-01 4.8062236844e-01 9.7436532321e-02 3.2126660167e-01 -1.0036541646e-01 -4.9844540320e-01 1.1501972862e-01 3.7031929124e-01 -1.8069459986e-02 3.6703958634e-01 -2.1111160466e-02 3.6972065386e-01 -1.4283996294e-02 3.6809385878e-01 -2.4594037011e-02 3.7031929124e-01 -1.8069459986e-02 -4.8170783971e-01 5.9425953450e-02 
1.8000000000e+09 -4.9135206032e-01 1.2176188636e-01 3.1621433170e-01 -1.0654774983e-01 4.8496371663e-01 1.0608372506e-01 3.1605995717e-01 -1.1705408395e-01 3.6672660774e-01 -2.2246130074e-02 3.1621433170e-01 -1.0654774983e-01 -4.9470804209e-01 1.1344073536e-01 3.1786033485e-01 -1.1228304134e-01 4.8360661336e-01 1.0244453067e-01 3.6963926984e-01 -1.5079460879e-02 4.8496371663e-01 1.0608372506e-01 3.1786033485e-01 -1.1228304134e-01 -4.9604575597e-01 1.1947514920e-01 3.1801590975e-01 -1.0538603882e-01 3.6775869187e-01 -2.5932811012e-02 3.1605995717e-01 -1.1705408395e-01 4.8360661336e-01 1.0244453067e-01 3.1801590975e-01 -1.0538603882e-01 -4.9535323806e-01 1.2104041846e-01 3.7021377293e-01 -1.9086523045e-02 3.6672660774e-01 -2.2246130074e-02 3.6963926984e-01 -1.5079460879e-02 3.6775869187e-01 -2.5932811012e-02 3.7021377293e-01 -1.9086523045e-02 -4.8144908451e-01 6.2970234007e-02 
1.9000000000e+09 -4.8803028690e-01 1.2767426257e-01 3.1284193431e-01 -1.1150468981e-01 4.8820311004e-01 1.1114372584e-01 3.1259088763e-01 -1.2257047060e-01 3.6640493384e-01 -2.3367815632e-02 3.1284193431e-01 -1.1150468981e-01 -4.9165490303e-01 1.1896488070e-01 3.1453839616e-01 -1.1757524385e-01 4.8672438309e-01 1.0733584390e-01 3.6955890792e-01 -1.5871318860e-02 4.8820311004e-01 1.1114372584e-01 3.1453839616e-01 -1.1757524385e-01 -4.9284180037e-01 1.2529616808e-01 3.1463225133e-01 -1.1027204324e-01 3.6741358979e-01 -2.7258137379e-02 3.1259088763e-01 -1.2257047060e-01 4.8672438309e-01 1.0733584390e-01 3.1463225133e-01 -1.1027204324e-01 -4.9212253195e-01 1.2694100749e-01 3.7010792177e-01 -2.0099815837e-02 3.6640493384e-01 -2.3367815632e-02 3.6955890792e-01 -1.5871318860e-02 3.6741358979e-01 -2.7258137379e-02 3.7010792177e-01 -2.0099815837e-02 -4.8116866330e-01 6.6518396294e-02 
2.0000000000e+09 -4.8457267827e-01 1.3345793848e-01 3.0934378921e-01 -1.1632438297e-01 4.9157492484e-01 1.1607773707e-01 3.0899220786e-01 -1.2794608539e-01 3.6607533272e-01 -2.4476471083e-02 3.0934378921e-01 -1.1632438297e-01 -4.8847640128e-01 1.2437124590e-01 3.1109252830e-01 -1.2273265637e-01 4.8996980010e-01 1.1210614435e-01 3.6947983485e-01 -1.6660119609e-02 4.9157492484e-01 1.1607773707e-01 3.1109252830e-01 -1.2273265637e-01 -4.8950633277e-01 1.3099365785e-01 3.1112265790e-01 -1.1501992071e-01 3.6705932174e-01 -2.8570264154e-02 3.0899220786e-01 -1.2794608539e-01 4.8996980010e-01 1.1210614435e-01 3.1112265790e-01 -1.1501992071e-01 -4.8875933176e-01 1.3271705406e-01 3.7000200467e-01 -2.1109881661e-02 3.6607533272e-01 -2.4476471083e-02 3.6947983485e-01 -1.6660119609e-02 3.6705932174e-01 -2.8570264154e-02 3.7000200467e-01 -2.1109881661e-02 -4.8086614301e-01 7.0069805685e-02 
2.1000000000e+09 -4.8098568013e-01 1.3910873933e-01 3.0572690789e-01 -1.2100375679e-01 4.9507285128e-01 1.2088165478e-01 3.0527110821e-01 -1.3317776433e-01 3.6573850083e-01 -2.5572388219e-02 3.0572690789e-01 -1.2100375679e-01 -4.8517842888e-01 1.2965596394e-01 3.0752961755e-01 -1.2775227622e-01 4.9333680659e-01 1.1675147450e-01 3.6940223816e-01 -1.7446419691e-02 4.9507285128e-01 1.2088165478e-01 3.0752961755e-01 -1.2775227622e-01 -4.8604553166e-01 1.3656357372e-01 3.0749419009e-01 -1.1962658509e-01 3.6669658488e-01 -2.9869477121e-02 3.0527110821e-01 -1.3317776433e-01 4.9333680659e-01 1.1675147450e-01 3.0749419009e-01 -1.1962658509e-01 -4.8526986799e-01 1.3836449715e-01 3.6989620886e-01 -2.2117270805e-02 3.6573850083e-01 -2.5572388219e-02 3.6940223816e-01 -1.7446419691e-02 3.6669658488e-01 -2.9869477121e-02 3.6989620886e-01 -2.2117270805e-02 -4.8054116901e-01 7.3623807604e-02 
